
T2F34 000:510 SEGGER J-Link V4.96d Log File (0002ms, 0277ms total)
T2F34 000:510 DLL Compiled: Jan 29 2015 11:45:37 (0002ms, 0277ms total)
T2F34 000:510 Logging started @ 2019-07-11 11:13 (0002ms, 0277ms total)
T2F34 000:513 JLINK_SetWarnOutHandler(...) (0000ms, 0277ms total)
T2F34 000:513 JLINK_OpenEx(...)
Firmware: J-Link V9 compiled Apr 20 2018 16:47:26
Hardware: V9.40
S/N: 59400616
Feature(s): RDI, FlashBP, FlashDL, JFlash, GDB  returns O.K. (0275ms, 0552ms total)
T2F34 000:788 JLINK_SetErrorOutHandler(...) (0000ms, 0552ms total)
T2F34 000:788 JLINK_ExecCommand("ProjectFile = "C:\Users\Young\Desktop\³ÌÐò\MDK-ARM\JLinkSettings.ini"", ...)Device "STM32F103VC" selected.  returns 0x00 (0043ms, 0595ms total)
T2F34 000:872 JLINK_ExecCommand("Device = STM32F103VC", ...)Device "STM32F103VC" selected.  returns 0x00 (0015ms, 0610ms total)
T2F34 000:887 JLINK_ExecCommand("DisableConnectionTimeout", ...)  returns 0x01 (0001ms, 0611ms total)
T2F34 000:888 JLINK_GetHardwareVersion()  returns 0x16F30 (0000ms, 0611ms total)
T2F34 000:888 JLINK_GetDLLVersion()  returns 49604 (0000ms, 0611ms total)
T2F34 000:888 JLINK_GetFirmwareString(...) (0000ms, 0611ms total)
T2F34 001:029 JLINK_GetDLLVersion()  returns 49604 (0000ms, 0611ms total)
T2F34 001:029 JLINK_GetCompileDateTime() (0000ms, 0611ms total)
T2F34 001:055 JLINK_GetFirmwareString(...) (0000ms, 0611ms total)
T2F34 001:076 JLINK_GetHardwareVersion()  returns 0x16F30 (0000ms, 0611ms total)
T2F34 001:137 JLINK_TIF_Select(JLINKARM_TIF_SWD)  returns 0x00 (0001ms, 0612ms total)
T2F34 001:138 JLINK_SetSpeed(10000) (0000ms, 0612ms total)
T2F34 001:138 JLINK_GetId() >0x108 TIF>Found SWD-DP with ID 0x1BA01477 >0x0D TIF> >0x28 TIF> >0x0D TIF> >0x28 TIF> >0x0D TIF> >0x21 TIF> >0x0D TIF> >0x28 TIF> >0x0D TIF> >0x28 TIF> >0x0D TIF> >0x28 TIF> >0x0D TIF> >0x21 TIF> >0x0D TIF> >0x21 TIF> >0x0D TIF> >0x28 TIF> >0x0D TIF> >0x21 TIF> >0x0D TIF> >0x21 TIF> >0x0D TIF> >0x28 TIF> >0x0D TIF> >0x28 TIF> >0x108 TIF>Found SWD-DP with ID 0x1BA01477 >0x0D TIF> >0x21 TIF> >0x0D TIF> >0x28 TIF> >0x0D TIF> >0x28 TIF> >0x0D TIF> >0x21 TIF> >0x0D TIF> >0x28 TIF>
 >0x0D TIF> >0x21 TIF> >0x0D TIF> >0x21 TIF> >0x0D TIF> >0x21 TIF> >0x0D TIF> >0x21 TIF> >0x0D TIF> >0x28 TIF> >0x0D TIF> >0x28 TIF> >0x0D TIF> >0x21 TIF> >0x0D TIF> >0x28 TIF> >0x0D TIF> >0x28 TIF> >0x0D TIF> >0x28 TIF> >0x0D TIF> >0x21 TIF> >0x0D TIF> >0x21 TIF> >0x0D TIF> >0x28 TIF> >0x0D TIF> >0x21 TIF> >0x0D TIF> >0x21 TIF>Found Cortex-M3 r1p1, Little endian. -- CPU_WriteMem(4 bytes @ 0xE0002000) -- CPU_ReadMem(4 bytes @ 0xE000EDF0) -- CPU_WriteMem(4 bytes @ 0xE000EDF0)
 -- CPU_ReadMem(4 bytes @ 0xE0002000)FPUnit: 6 code (BP) slots and 2 literal slots -- CPU_ReadMem(4 bytes @ 0xE000EDFC) -- CPU_WriteMem(4 bytes @ 0xE000EDFC) -- CPU_ReadMem(4 bytes @ 0xE0001000) -- CPU_WriteMem(4 bytes @ 0xE0001000) -- CPU_ReadMem(4 bytes @ 0xE000ED88) -- CPU_WriteMem(4 bytes @ 0xE000ED88) -- CPU_ReadMem(4 bytes @ 0xE000ED88) -- CPU_WriteMem(4 bytes @ 0xE000ED88) -- CPU_ReadMem(4 bytes @ 0xE00FF010)TPIU fitted. -- CPU_ReadMem(4 bytes @ 0xE00FF014)ETM fitted.
 -- CPU_ReadMem(4 bytes @ 0xE00FF018) >0x0D TIF> >0x21 TIF>  returns 0x1BA01477 (0145ms, 0757ms total)
T2F34 001:284 JLINK_GetDLLVersion()  returns 49604 (0000ms, 0757ms total)
T2F34 001:284 JLINK_CORE_GetFound()  returns 0x30000FF (0000ms, 0757ms total)
T2F34 001:284 JLINK_GetDebugInfo(0x100) -- Value=0xE00FF003  returns 0x00 (0000ms, 0757ms total)
T2F34 001:298 JLINK_ReadMem (0xE00FF000, 0x0020 Bytes, ...) -- CPU is running -- CPU_ReadMem(32 bytes @ 0xE00FF000) - Data: 03 F0 F0 FF 03 20 F0 FF 03 30 F0 FF 03 10 F0 FF ...  returns 0x00 (0001ms, 0758ms total)
T2F34 001:299 JLINK_ReadMem (0xE000EFF0, 0x0010 Bytes, ...) -- CPU is running -- CPU_ReadMem(16 bytes @ 0xE000EFF0) - Data: 0D 00 00 00 E0 00 00 00 05 00 00 00 B1 00 00 00  returns 0x00 (0000ms, 0758ms total)
T2F34 001:299 JLINK_ReadMem (0xE000EFD0, 0x0020 Bytes, ...) -- CPU is running -- CPU_ReadMem(32 bytes @ 0xE000EFD0) - Data: 04 00 00 00 00 00 00 00 00 00 00 00 00 00 00 00 ...  returns 0x00 (0001ms, 0759ms total)
T2F34 001:300 JLINK_ReadMem (0xE0001FF0, 0x0010 Bytes, ...) -- CPU is running -- CPU_ReadMem(16 bytes @ 0xE0001FF0) - Data: 0D 00 00 00 E0 00 00 00 05 00 00 00 B1 00 00 00  returns 0x00 (0001ms, 0760ms total)
T2F34 001:301 JLINK_ReadMem (0xE0001FD0, 0x0020 Bytes, ...) -- CPU is running -- CPU_ReadMem(32 bytes @ 0xE0001FD0) - Data: 04 00 00 00 00 00 00 00 00 00 00 00 00 00 00 00 ...  returns 0x00 (0001ms, 0761ms total)
T2F34 001:302 JLINK_ReadMem (0xE0002FF0, 0x0010 Bytes, ...) -- CPU is running -- CPU_ReadMem(16 bytes @ 0xE0002FF0) - Data: 0D 00 00 00 E0 00 00 00 05 00 00 00 B1 00 00 00  returns 0x00 (0000ms, 0761ms total)
T2F34 001:302 JLINK_ReadMem (0xE0002FD0, 0x0020 Bytes, ...) -- CPU is running -- CPU_ReadMem(32 bytes @ 0xE0002FD0) - Data: 04 00 00 00 00 00 00 00 00 00 00 00 00 00 00 00 ...  returns 0x00 (0001ms, 0762ms total)
T2F34 001:303 JLINK_ReadMem (0xE0000FF0, 0x0010 Bytes, ...) -- CPU is running -- CPU_ReadMem(16 bytes @ 0xE0000FF0) - Data: 0D 00 00 00 E0 00 00 00 05 00 00 00 B1 00 00 00  returns 0x00 (0001ms, 0763ms total)
T2F34 001:304 JLINK_ReadMem (0xE0000FD0, 0x0020 Bytes, ...) -- CPU is running -- CPU_ReadMem(32 bytes @ 0xE0000FD0) - Data: 04 00 00 00 00 00 00 00 00 00 00 00 00 00 00 00 ...  returns 0x00 (0001ms, 0764ms total)
T2F34 001:305 JLINK_ReadMem (0xE0040FF0, 0x0010 Bytes, ...) -- CPU is running -- CPU_ReadMem(16 bytes @ 0xE0040FF0) - Data: 0D 00 00 00 90 00 00 00 05 00 00 00 B1 00 00 00  returns 0x00 (0000ms, 0764ms total)
T2F34 001:306 JLINK_ReadMem (0xE0040FD0, 0x0020 Bytes, ...) -- CPU is running -- CPU_ReadMem(32 bytes @ 0xE0040FD0) - Data: 04 00 00 00 00 00 00 00 00 00 00 00 00 00 00 00 ...  returns 0x00 (0000ms, 0764ms total)
T2F34 001:306 JLINK_ReadMem (0xE0041FF0, 0x0010 Bytes, ...) -- CPU is running -- CPU_ReadMem(16 bytes @ 0xE0041FF0) - Data: 0D 00 00 00 90 00 00 00 05 00 00 00 B1 00 00 00  returns 0x00 (0001ms, 0765ms total)
T2F34 001:307 JLINK_ReadMem (0xE0041FD0, 0x0020 Bytes, ...) -- CPU is running -- CPU_ReadMem(32 bytes @ 0xE0041FD0) - Data: 04 00 00 00 00 00 00 00 00 00 00 00 00 00 00 00 ...  returns 0x00 (0001ms, 0766ms total)
T2F34 001:308 JLINK_ReadMemU32(0xE000ED00, 0x0001 Items, ...) -- CPU is running -- CPU_ReadMem(4 bytes @ 0xE000ED00) - Data: 31 C2 1F 41  returns 0x01 (0000ms, 0766ms total)
T2F34 001:308 JLINK_SetResetType(JLINKARM_RESET_TYPE_NORMAL)  returns JLINKARM_RESET_TYPE_NORMAL (0000ms, 0766ms total)
T2F34 001:308 JLINK_Reset() -- CPU is running -- CPU_WriteMem(4 bytes @ 0xE000EDF0) -- CPU is running -- CPU_WriteMem(4 bytes @ 0xE000EDFC) >0x35 TIF> -- CPU is running -- CPU_WriteMem(4 bytes @ 0xE000ED0C) -- CPU is running -- CPU_ReadMem(4 bytes @ 0xE000EDF0) -- CPU is running -- CPU_ReadMem(4 bytes @ 0xE000EDF0) -- CPU is running -- CPU_WriteMem(4 bytes @ 0xE000EDF0) -- CPU is running -- CPU_WriteMem(4 bytes @ 0xE000EDFC) -- CPU is running -- CPU_ReadMem(4 bytes @ 0xE000EDF0)
 -- CPU_WriteMem(4 bytes @ 0xE0002000) -- CPU_ReadMem(4 bytes @ 0xE000EDFC) -- CPU_ReadMem(4 bytes @ 0xE0001000) (0019ms, 0785ms total)
T2F34 001:327 JLINK_Halt()  returns 0x00 (0000ms, 0785ms total)
T2F34 001:327 JLINK_IsHalted()  returns TRUE (0000ms, 0785ms total)
T2F34 001:327 JLINK_ReadMemU32(0xE000EDF0, 0x0001 Items, ...) -- CPU_ReadMem(4 bytes @ 0xE000EDF0) - Data: 03 00 03 00  returns 0x01 (0001ms, 0786ms total)
T2F34 001:328 JLINK_WriteU32(0xE000EDF0, 0xA05F0003) -- CPU_WriteMem(4 bytes @ 0xE000EDF0)  returns 0x00 (0000ms, 0786ms total)
T2F34 001:328 JLINK_WriteU32(0xE000EDFC, 0x01000000) -- CPU_WriteMem(4 bytes @ 0xE000EDFC)  returns 0x00 (0001ms, 0787ms total)
T2F34 001:388 JLINK_GetHWStatus(...)  returns 0x00 (0000ms, 0787ms total)
T2F34 001:425 JLINK_GetNumBPUnits(Type = 0xFFFFFF00)  returns 0x06 (0000ms, 0787ms total)
T2F34 001:425 JLINK_GetNumBPUnits(Type = 0xF0)  returns 0x2000 (0001ms, 0788ms total)
T2F34 001:426 JLINK_GetNumWPUnits()  returns 0x04 (0000ms, 0788ms total)
T2F34 001:473 JLINK_GetSpeed()  returns 0x1770 (0000ms, 0788ms total)
T2F34 001:507 JLINK_ReadMemU32(0xE000E004, 0x0001 Items, ...) -- CPU_ReadMem(4 bytes @ 0xE000E004) - Data: 01 00 00 00  returns 0x01 (0001ms, 0789ms total)
T2F34 001:508 JLINK_ReadMemU32(0xE000E004, 0x0001 Items, ...) -- CPU_ReadMem(4 bytes @ 0xE000E004) - Data: 01 00 00 00  returns 0x01 (0000ms, 0789ms total)
T2F34 001:508 JLINK_WriteMem(0xE0001000, 0x001C Bytes, ...) - Data: 01 00 00 00 00 00 00 00 00 00 00 00 00 00 00 00 ... -- CPU_WriteMem(28 bytes @ 0xE0001000)  returns 0x1C (0003ms, 0792ms total)
T2F34 001:511 JLINK_ReadMem (0xE0001000, 0x001C Bytes, ...) -- CPU_ReadMem(28 bytes @ 0xE0001000) - Data: 01 00 00 40 00 00 00 00 00 00 00 00 00 00 00 00 ...  returns 0x00 (0000ms, 0792ms total)
T2F34 001:511 JLINK_Halt()  returns 0x00 (0001ms, 0793ms total)
T2F34 001:512 JLINK_IsHalted()  returns TRUE (0000ms, 0793ms total)
T2F34 001:522 JLINK_WriteMem(0x20000000, 0x0164 Bytes, ...) - Data: 00 BE 0A E0 0D 78 2D 06 68 40 08 24 40 00 00 D3 ... -- CPU_WriteMem(356 bytes @ 0x20000000)  returns 0x164 (0004ms, 0797ms total)
T2F34 001:526 JLINK_WriteReg(R0, 0x08000000)  returns 0x00 (0000ms, 0797ms total)
T2F34 001:526 JLINK_WriteReg(R1, 0x044AA200)  returns 0x00 (0000ms, 0797ms total)
T2F34 001:526 JLINK_WriteReg(R2, 0x00000001)  returns 0x00 (0000ms, 0797ms total)
T2F34 001:526 JLINK_WriteReg(R3, 0x00000000)  returns 0x00 (0000ms, 0797ms total)
T2F34 001:526 JLINK_WriteReg(R4, 0x00000000)  returns 0x00 (0000ms, 0797ms total)
T2F34 001:526 JLINK_WriteReg(R5, 0x00000000)  returns 0x00 (0000ms, 0797ms total)
T2F34 001:526 JLINK_WriteReg(R6, 0x00000000)  returns 0x00 (0000ms, 0797ms total)
T2F34 001:526 JLINK_WriteReg(R7, 0x00000000)  returns 0x00 (0001ms, 0798ms total)
T2F34 001:527 JLINK_WriteReg(R8, 0x00000000)  returns 0x00 (0000ms, 0798ms total)
T2F34 001:527 JLINK_WriteReg(R9, 0x20000160)  returns 0x00 (0000ms, 0798ms total)
T2F34 001:527 JLINK_WriteReg(R10, 0x00000000)  returns 0x00 (0000ms, 0798ms total)
T2F34 001:527 JLINK_WriteReg(R11, 0x00000000)  returns 0x00 (0000ms, 0798ms total)
T2F34 001:527 JLINK_WriteReg(R12, 0x00000000)  returns 0x00 (0000ms, 0798ms total)
T2F34 001:527 JLINK_WriteReg(R13 (SP), 0x20001000)  returns 0x00 (0000ms, 0798ms total)
T2F34 001:527 JLINK_WriteReg(R14, 0x20000001)  returns 0x00 (0000ms, 0798ms total)
T2F34 001:527 JLINK_WriteReg(R15 (PC), 0x20000038)  returns 0x00 (0000ms, 0798ms total)
T2F34 001:527 JLINK_WriteReg(XPSR, 0x01000000)  returns 0x00 (0000ms, 0798ms total)
T2F34 001:527 JLINK_WriteReg(MSP, 0x20001000)  returns 0x00 (0001ms, 0799ms total)
T2F34 001:528 JLINK_WriteReg(PSP, 0x20001000)  returns 0x00 (0000ms, 0799ms total)
T2F34 001:528 JLINK_WriteReg(CFBP, 0x00000000)  returns 0x00 (0000ms, 0799ms total)
T2F34 001:528 JLINK_SetBPEx(Addr = 0x20000000, Type = 0xFFFFFFF2) -- CPU_ReadMem(2 bytes @ 0x20000000)  returns 0x00000001 (0000ms, 0799ms total)
T2F34 001:528 JLINK_Go() -- CPU_WriteMem(2 bytes @ 0x20000000) -- CPU_WriteMem(4 bytes @ 0xE0002008) -- CPU_WriteMem(4 bytes @ 0xE000200C) -- CPU_WriteMem(4 bytes @ 0xE0002010) -- CPU_WriteMem(4 bytes @ 0xE0002014) -- CPU_WriteMem(4 bytes @ 0xE0002018) -- CPU_WriteMem(4 bytes @ 0xE000201C) -- CPU_WriteMem(4 bytes @ 0xE0001004) (0004ms, 0803ms total)
T2F34 001:533 JLINK_IsHalted() -- CPU_ReadMem(2 bytes @ 0x20000000)  returns TRUE (0002ms, 0805ms total)
T2F34 001:535 JLINK_ReadReg(R15 (PC))  returns 0x20000000 (0000ms, 0803ms total)
T2F34 001:535 JLINK_ClrBPEx(BPHandle = 0x00000001)  returns 0x00 (0001ms, 0804ms total)
T2F34 001:536 JLINK_ReadReg(R0)  returns 0x00000000 (0000ms, 0804ms total)
T2F34 001:537 JLINK_WriteReg(R0, 0x08000000)  returns 0x00 (0000ms, 0804ms total)
T2F34 001:537 JLINK_WriteReg(R1, 0x044AA200)  returns 0x00 (0000ms, 0804ms total)
T2F34 001:537 JLINK_WriteReg(R2, 0x00000001)  returns 0x00 (0000ms, 0804ms total)
T2F34 001:537 JLINK_WriteReg(R3, 0x00000000)  returns 0x00 (0000ms, 0804ms total)
T2F34 001:537 JLINK_WriteReg(R4, 0x00000000)  returns 0x00 (0000ms, 0804ms total)
T2F34 001:537 JLINK_WriteReg(R5, 0x00000000)  returns 0x00 (0000ms, 0804ms total)
T2F34 001:537 JLINK_WriteReg(R6, 0x00000000)  returns 0x00 (0000ms, 0804ms total)
T2F34 001:537 JLINK_WriteReg(R7, 0x00000000)  returns 0x00 (0000ms, 0804ms total)
T2F34 001:537 JLINK_WriteReg(R8, 0x00000000)  returns 0x00 (0001ms, 0805ms total)
T2F34 001:538 JLINK_WriteReg(R9, 0x20000160)  returns 0x00 (0000ms, 0805ms total)
T2F34 001:538 JLINK_WriteReg(R10, 0x00000000)  returns 0x00 (0000ms, 0805ms total)
T2F34 001:538 JLINK_WriteReg(R11, 0x00000000)  returns 0x00 (0000ms, 0805ms total)
T2F34 001:538 JLINK_WriteReg(R12, 0x00000000)  returns 0x00 (0000ms, 0805ms total)
T2F34 001:538 JLINK_WriteReg(R13 (SP), 0x20001000)  returns 0x00 (0000ms, 0805ms total)
T2F34 001:538 JLINK_WriteReg(R14, 0x20000001)  returns 0x00 (0000ms, 0805ms total)
T2F34 001:538 JLINK_WriteReg(R15 (PC), 0x2000007C)  returns 0x00 (0000ms, 0805ms total)
T2F34 001:538 JLINK_WriteReg(XPSR, 0x01000000)  returns 0x00 (0000ms, 0805ms total)
T2F34 001:538 JLINK_WriteReg(MSP, 0x20001000)  returns 0x00 (0000ms, 0805ms total)
T2F34 001:538 JLINK_WriteReg(PSP, 0x20001000)  returns 0x00 (0001ms, 0806ms total)
T2F34 001:539 JLINK_WriteReg(CFBP, 0x00000000)  returns 0x00 (0000ms, 0806ms total)
T2F34 001:539 JLINK_SetBPEx(Addr = 0x20000000, Type = 0xFFFFFFF2)  returns 0x00000002 (0000ms, 0806ms total)
T2F34 001:539 JLINK_Go() (0001ms, 0807ms total)
T2F34 001:540 JLINK_IsHalted()  returns FALSE (0000ms, 0807ms total)
T2F34 001:850 JLINK_IsHalted() -- CPU_ReadMem(2 bytes @ 0x20000000)  returns TRUE (0002ms, 0809ms total)
T2F34 001:852 JLINK_ReadReg(R15 (PC))  returns 0x20000000 (0000ms, 0807ms total)
T2F34 001:852 JLINK_ClrBPEx(BPHandle = 0x00000002)  returns 0x00 (0000ms, 0807ms total)
T2F34 001:852 JLINK_ReadReg(R0)  returns 0x00000000 (0000ms, 0807ms total)
T2F34 001:905 JLINK_WriteReg(R0, 0x00000001)  returns 0x00 (0001ms, 0808ms total)
T2F34 001:906 JLINK_WriteReg(R1, 0x044AA200)  returns 0x00 (0000ms, 0808ms total)
T2F34 001:906 JLINK_WriteReg(R2, 0x00000001)  returns 0x00 (0000ms, 0808ms total)
T2F34 001:906 JLINK_WriteReg(R3, 0x00000000)  returns 0x00 (0000ms, 0808ms total)
T2F34 001:906 JLINK_WriteReg(R4, 0x00000000)  returns 0x00 (0000ms, 0808ms total)
T2F34 001:906 JLINK_WriteReg(R5, 0x00000000)  returns 0x00 (0000ms, 0808ms total)
T2F34 001:906 JLINK_WriteReg(R6, 0x00000000)  returns 0x00 (0000ms, 0808ms total)
T2F34 001:906 JLINK_WriteReg(R7, 0x00000000)  returns 0x00 (0000ms, 0808ms total)
T2F34 001:906 JLINK_WriteReg(R8, 0x00000000)  returns 0x00 (0000ms, 0808ms total)
T2F34 001:906 JLINK_WriteReg(R9, 0x20000160)  returns 0x00 (0000ms, 0808ms total)
T2F34 001:906 JLINK_WriteReg(R10, 0x00000000)  returns 0x00 (0000ms, 0808ms total)
T2F34 001:907 JLINK_WriteReg(R11, 0x00000000)  returns 0x00 (0000ms, 0809ms total)
T2F34 001:907 JLINK_WriteReg(R12, 0x00000000)  returns 0x00 (0000ms, 0809ms total)
T2F34 001:907 JLINK_WriteReg(R13 (SP), 0x20001000)  returns 0x00 (0000ms, 0809ms total)
T2F34 001:907 JLINK_WriteReg(R14, 0x20000001)  returns 0x00 (0000ms, 0809ms total)
T2F34 001:907 JLINK_WriteReg(R15 (PC), 0x2000006A)  returns 0x00 (0000ms, 0809ms total)
T2F34 001:907 JLINK_WriteReg(XPSR, 0x01000000)  returns 0x00 (0000ms, 0809ms total)
T2F34 001:907 JLINK_WriteReg(MSP, 0x20001000)  returns 0x00 (0000ms, 0809ms total)
T2F34 001:907 JLINK_WriteReg(PSP, 0x20001000)  returns 0x00 (0000ms, 0809ms total)
T2F34 001:907 JLINK_WriteReg(CFBP, 0x00000000)  returns 0x00 (0000ms, 0809ms total)
T2F34 001:907 JLINK_SetBPEx(Addr = 0x20000000, Type = 0xFFFFFFF2)  returns 0x00000003 (0000ms, 0809ms total)
T2F34 001:908 JLINK_Go() (0001ms, 0811ms total)
T2F34 001:909 JLINK_IsHalted() -- CPU_ReadMem(2 bytes @ 0x20000000)  returns TRUE (0003ms, 0814ms total)
T2F34 001:912 JLINK_ReadReg(R15 (PC))  returns 0x20000000 (0000ms, 0811ms total)
T2F34 001:912 JLINK_ClrBPEx(BPHandle = 0x00000003)  returns 0x00 (0000ms, 0811ms total)
T2F34 001:912 JLINK_ReadReg(R0)  returns 0x00000000 (0000ms, 0811ms total)
T2F34 001:939 JLINK_WriteMem(0x20000000, 0x0164 Bytes, ...) - Data: 00 BE 0A E0 0D 78 2D 06 68 40 08 24 40 00 00 D3 ... -- CPU_WriteMem(356 bytes @ 0x20000000)  returns 0x164 (0002ms, 0813ms total)
T2F34 001:941 JLINK_WriteReg(R0, 0x08000000)  returns 0x00 (0000ms, 0813ms total)
T2F34 001:941 JLINK_WriteReg(R1, 0x044AA200)  returns 0x00 (0000ms, 0813ms total)
T2F34 001:941 JLINK_WriteReg(R2, 0x00000002)  returns 0x00 (0000ms, 0813ms total)
T2F34 001:941 JLINK_WriteReg(R3, 0x00000000)  returns 0x00 (0000ms, 0813ms total)
T2F34 001:941 JLINK_WriteReg(R4, 0x00000000)  returns 0x00 (0000ms, 0813ms total)
T2F34 001:941 JLINK_WriteReg(R5, 0x00000000)  returns 0x00 (0000ms, 0813ms total)
T2F34 001:941 JLINK_WriteReg(R6, 0x00000000)  returns 0x00 (0000ms, 0813ms total)
T2F34 001:941 JLINK_WriteReg(R7, 0x00000000)  returns 0x00 (0001ms, 0814ms total)
T2F34 001:942 JLINK_WriteReg(R8, 0x00000000)  returns 0x00 (0000ms, 0814ms total)
T2F34 001:942 JLINK_WriteReg(R9, 0x20000160)  returns 0x00 (0000ms, 0814ms total)
T2F34 001:942 JLINK_WriteReg(R10, 0x00000000)  returns 0x00 (0000ms, 0814ms total)
T2F34 001:942 JLINK_WriteReg(R11, 0x00000000)  returns 0x00 (0000ms, 0814ms total)
T2F34 001:942 JLINK_WriteReg(R12, 0x00000000)  returns 0x00 (0000ms, 0814ms total)
T2F34 001:942 JLINK_WriteReg(R13 (SP), 0x20001000)  returns 0x00 (0000ms, 0814ms total)
T2F34 001:942 JLINK_WriteReg(R14, 0x20000001)  returns 0x00 (0000ms, 0814ms total)
T2F34 001:942 JLINK_WriteReg(R15 (PC), 0x20000038)  returns 0x00 (0000ms, 0814ms total)
T2F34 001:942 JLINK_WriteReg(XPSR, 0x01000000)  returns 0x00 (0000ms, 0814ms total)
T2F34 001:942 JLINK_WriteReg(MSP, 0x20001000)  returns 0x00 (0000ms, 0814ms total)
T2F34 001:942 JLINK_WriteReg(PSP, 0x20001000)  returns 0x00 (0001ms, 0815ms total)
T2F34 001:943 JLINK_WriteReg(CFBP, 0x00000000)  returns 0x00 (0000ms, 0815ms total)
T2F34 001:943 JLINK_SetBPEx(Addr = 0x20000000, Type = 0xFFFFFFF2) -- CPU_ReadMem(2 bytes @ 0x20000000)  returns 0x00000004 (0000ms, 0815ms total)
T2F34 001:943 JLINK_Go() -- CPU_WriteMem(2 bytes @ 0x20000000) (0004ms, 0819ms total)
T2F34 001:947 JLINK_IsHalted() -- CPU_ReadMem(2 bytes @ 0x20000000)  returns TRUE (0002ms, 0821ms total)
T2F34 001:949 JLINK_ReadReg(R15 (PC))  returns 0x20000000 (0000ms, 0819ms total)
T2F34 001:949 JLINK_ClrBPEx(BPHandle = 0x00000004)  returns 0x00 (0000ms, 0819ms total)
T2F34 001:949 JLINK_ReadReg(R0)  returns 0x00000000 (0000ms, 0819ms total)
T2F34 001:950 JLINK_WriteMem(0x20000164, 0x0400 Bytes, ...) - Data: 68 33 00 20 DD 01 00 08 5F 40 00 08 FD 32 00 08 ... -- CPU_WriteMem(1024 bytes @ 0x20000164)  returns 0x400 (0005ms, 0824ms total)
T2F34 001:955 JLINK_WriteReg(R0, 0x08000000)  returns 0x00 (0000ms, 0824ms total)
T2F34 001:955 JLINK_WriteReg(R1, 0x00000400)  returns 0x00 (0000ms, 0824ms total)
T2F34 001:955 JLINK_WriteReg(R2, 0x20000164)  returns 0x00 (0000ms, 0824ms total)
T2F34 001:955 JLINK_WriteReg(R3, 0x00000000)  returns 0x00 (0000ms, 0824ms total)
T2F34 001:955 JLINK_WriteReg(R4, 0x00000000)  returns 0x00 (0000ms, 0824ms total)
T2F34 001:955 JLINK_WriteReg(R5, 0x00000000)  returns 0x00 (0000ms, 0824ms total)
T2F34 001:955 JLINK_WriteReg(R6, 0x00000000)  returns 0x00 (0000ms, 0824ms total)
T2F34 001:955 JLINK_WriteReg(R7, 0x00000000)  returns 0x00 (0000ms, 0824ms total)
T2F34 001:955 JLINK_WriteReg(R8, 0x00000000)  returns 0x00 (0000ms, 0824ms total)
T2F34 001:955 JLINK_WriteReg(R9, 0x20000160)  returns 0x00 (0000ms, 0824ms total)
T2F34 001:955 JLINK_WriteReg(R10, 0x00000000)  returns 0x00 (0000ms, 0824ms total)
T2F34 001:955 JLINK_WriteReg(R11, 0x00000000)  returns 0x00 (0000ms, 0824ms total)
T2F34 001:955 JLINK_WriteReg(R12, 0x00000000)  returns 0x00 (0000ms, 0824ms total)
T2F34 001:955 JLINK_WriteReg(R13 (SP), 0x20001000)  returns 0x00 (0000ms, 0824ms total)
T2F34 001:955 JLINK_WriteReg(R14, 0x20000001)  returns 0x00 (0000ms, 0824ms total)
T2F34 001:955 JLINK_WriteReg(R15 (PC), 0x200000F4)  returns 0x00 (0001ms, 0825ms total)
T2F34 001:956 JLINK_WriteReg(XPSR, 0x01000000)  returns 0x00 (0000ms, 0825ms total)
T2F34 001:957 JLINK_WriteReg(MSP, 0x20001000)  returns 0x00 (0000ms, 0825ms total)
T2F34 001:957 JLINK_WriteReg(PSP, 0x20001000)  returns 0x00 (0000ms, 0825ms total)
T2F34 001:957 JLINK_WriteReg(CFBP, 0x00000000)  returns 0x00 (0000ms, 0825ms total)
T2F34 001:957 JLINK_SetBPEx(Addr = 0x20000000, Type = 0xFFFFFFF2)  returns 0x00000005 (0000ms, 0825ms total)
T2F34 001:957 JLINK_Go() (0001ms, 0826ms total)
T2F34 001:958 JLINK_IsHalted()  returns FALSE (0001ms, 0827ms total)
T2F34 002:161 JLINK_IsHalted() -- CPU_ReadMem(2 bytes @ 0x20000000)  returns TRUE (0002ms, 0828ms total)
T2F34 002:163 JLINK_ReadReg(R15 (PC))  returns 0x20000000 (0000ms, 0826ms total)
T2F34 002:163 JLINK_ClrBPEx(BPHandle = 0x00000005)  returns 0x00 (0000ms, 0826ms total)
T2F34 002:163 JLINK_ReadReg(R0)  returns 0x00000000 (0000ms, 0826ms total)
T2F34 002:164 JLINK_WriteMem(0x20000164, 0x0400 Bytes, ...) - Data: 4F EA 41 01 F7 D1 51 B1 91 42 02 D1 4F F0 00 41 ... -- CPU_WriteMem(1024 bytes @ 0x20000164)  returns 0x400 (0005ms, 0831ms total)
T2F34 002:169 JLINK_WriteReg(R0, 0x08000400)  returns 0x00 (0000ms, 0831ms total)
T2F34 002:169 JLINK_WriteReg(R1, 0x00000400)  returns 0x00 (0000ms, 0831ms total)
T2F34 002:169 JLINK_WriteReg(R2, 0x20000164)  returns 0x00 (0000ms, 0831ms total)
T2F34 002:169 JLINK_WriteReg(R3, 0x00000000)  returns 0x00 (0000ms, 0831ms total)
T2F34 002:169 JLINK_WriteReg(R4, 0x00000000)  returns 0x00 (0000ms, 0831ms total)
T2F34 002:169 JLINK_WriteReg(R5, 0x00000000)  returns 0x00 (0000ms, 0831ms total)
T2F34 002:169 JLINK_WriteReg(R6, 0x00000000)  returns 0x00 (0000ms, 0831ms total)
T2F34 002:169 JLINK_WriteReg(R7, 0x00000000)  returns 0x00 (0000ms, 0831ms total)
T2F34 002:169 JLINK_WriteReg(R8, 0x00000000)  returns 0x00 (0000ms, 0831ms total)
T2F34 002:169 JLINK_WriteReg(R9, 0x20000160)  returns 0x00 (0000ms, 0831ms total)
T2F34 002:169 JLINK_WriteReg(R10, 0x00000000)  returns 0x00 (0000ms, 0831ms total)
T2F34 002:169 JLINK_WriteReg(R11, 0x00000000)  returns 0x00 (0000ms, 0831ms total)
T2F34 002:169 JLINK_WriteReg(R12, 0x00000000)  returns 0x00 (0000ms, 0831ms total)
T2F34 002:169 JLINK_WriteReg(R13 (SP), 0x20001000)  returns 0x00 (0000ms, 0831ms total)
T2F34 002:169 JLINK_WriteReg(R14, 0x20000001)  returns 0x00 (0000ms, 0831ms total)
T2F34 002:169 JLINK_WriteReg(R15 (PC), 0x200000F4)  returns 0x00 (0000ms, 0831ms total)
T2F34 002:169 JLINK_WriteReg(XPSR, 0x01000000)  returns 0x00 (0000ms, 0831ms total)
T2F34 002:169 JLINK_WriteReg(MSP, 0x20001000)  returns 0x00 (0000ms, 0831ms total)
T2F34 002:169 JLINK_WriteReg(PSP, 0x20001000)  returns 0x00 (0000ms, 0831ms total)
T2F34 002:169 JLINK_WriteReg(CFBP, 0x00000000)  returns 0x00 (0000ms, 0831ms total)
T2F34 002:169 JLINK_SetBPEx(Addr = 0x20000000, Type = 0xFFFFFFF2)  returns 0x00000006 (0000ms, 0831ms total)
T2F34 002:169 JLINK_Go() (0002ms, 0833ms total)
T2F34 002:171 JLINK_IsHalted()  returns FALSE (0001ms, 0834ms total)
T2F34 002:282 JLINK_IsHalted() -- CPU_ReadMem(2 bytes @ 0x20000000)  returns TRUE (0003ms, 0836ms total)
T2F34 002:285 JLINK_ReadReg(R15 (PC))  returns 0x20000000 (0000ms, 0833ms total)
T2F34 002:285 JLINK_ClrBPEx(BPHandle = 0x00000006)  returns 0x00 (0000ms, 0833ms total)
T2F34 002:285 JLINK_ReadReg(R0)  returns 0x00000000 (0000ms, 0833ms total)
T2F34 002:286 JLINK_WriteMem(0x20000164, 0x0400 Bytes, ...) - Data: 80 11 9A 42 01 DA 00 20 70 BD 40 F2 33 43 9A 42 ... -- CPU_WriteMem(1024 bytes @ 0x20000164)  returns 0x400 (0005ms, 0838ms total)
T2F34 002:291 JLINK_WriteReg(R0, 0x08000800)  returns 0x00 (0000ms, 0838ms total)
T2F34 002:291 JLINK_WriteReg(R1, 0x00000400)  returns 0x00 (0000ms, 0838ms total)
T2F34 002:291 JLINK_WriteReg(R2, 0x20000164)  returns 0x00 (0000ms, 0838ms total)
T2F34 002:291 JLINK_WriteReg(R3, 0x00000000)  returns 0x00 (0000ms, 0838ms total)
T2F34 002:291 JLINK_WriteReg(R4, 0x00000000)  returns 0x00 (0000ms, 0838ms total)
T2F34 002:291 JLINK_WriteReg(R5, 0x00000000)  returns 0x00 (0000ms, 0838ms total)
T2F34 002:291 JLINK_WriteReg(R6, 0x00000000)  returns 0x00 (0000ms, 0838ms total)
T2F34 002:291 JLINK_WriteReg(R7, 0x00000000)  returns 0x00 (0000ms, 0838ms total)
T2F34 002:291 JLINK_WriteReg(R8, 0x00000000)  returns 0x00 (0000ms, 0838ms total)
T2F34 002:291 JLINK_WriteReg(R9, 0x20000160)  returns 0x00 (0000ms, 0838ms total)
T2F34 002:291 JLINK_WriteReg(R10, 0x00000000)  returns 0x00 (0000ms, 0838ms total)
T2F34 002:291 JLINK_WriteReg(R11, 0x00000000)  returns 0x00 (0000ms, 0838ms total)
T2F34 002:291 JLINK_WriteReg(R12, 0x00000000)  returns 0x00 (0000ms, 0838ms total)
T2F34 002:291 JLINK_WriteReg(R13 (SP), 0x20001000)  returns 0x00 (0000ms, 0838ms total)
T2F34 002:291 JLINK_WriteReg(R14, 0x20000001)  returns 0x00 (0000ms, 0838ms total)
T2F34 002:291 JLINK_WriteReg(R15 (PC), 0x200000F4)  returns 0x00 (0000ms, 0838ms total)
T2F34 002:291 JLINK_WriteReg(XPSR, 0x01000000)  returns 0x00 (0000ms, 0838ms total)
T2F34 002:291 JLINK_WriteReg(MSP, 0x20001000)  returns 0x00 (0000ms, 0838ms total)
T2F34 002:291 JLINK_WriteReg(PSP, 0x20001000)  returns 0x00 (0000ms, 0838ms total)
T2F34 002:291 JLINK_WriteReg(CFBP, 0x00000000)  returns 0x00 (0000ms, 0838ms total)
T2F34 002:291 JLINK_SetBPEx(Addr = 0x20000000, Type = 0xFFFFFFF2)  returns 0x00000007 (0000ms, 0838ms total)
T2F34 002:291 JLINK_Go() (0002ms, 0840ms total)
T2F34 002:293 JLINK_IsHalted()  returns FALSE (0000ms, 0840ms total)
T2F34 002:311 JLINK_IsHalted()  returns FALSE (0000ms, 0840ms total)
T2F34 002:313 JLINK_IsHalted()  returns FALSE (0000ms, 0840ms total)
T2F34 002:315 JLINK_IsHalted()  returns FALSE (0000ms, 0840ms total)
T2F34 002:317 JLINK_IsHalted()  returns FALSE (0000ms, 0840ms total)
T2F34 002:319 JLINK_IsHalted()  returns FALSE (0000ms, 0840ms total)
T2F34 002:321 JLINK_IsHalted()  returns FALSE (0000ms, 0840ms total)
T2F34 002:327 JLINK_IsHalted() -- CPU_ReadMem(2 bytes @ 0x20000000)  returns TRUE (0002ms, 0842ms total)
T2F34 002:329 JLINK_ReadReg(R15 (PC))  returns 0x20000000 (0000ms, 0840ms total)
T2F34 002:329 JLINK_ClrBPEx(BPHandle = 0x00000007)  returns 0x00 (0000ms, 0840ms total)
T2F34 002:329 JLINK_ReadReg(R0)  returns 0x00000000 (0000ms, 0840ms total)
T2F34 002:330 JLINK_WriteMem(0x20000164, 0x0400 Bytes, ...) - Data: 51 B9 81 6A 21 F4 80 71 81 62 81 6A C9 04 03 D4 ... -- CPU_WriteMem(1024 bytes @ 0x20000164)  returns 0x400 (0005ms, 0845ms total)
T2F34 002:335 JLINK_WriteReg(R0, 0x08000C00)  returns 0x00 (0000ms, 0845ms total)
T2F34 002:335 JLINK_WriteReg(R1, 0x00000400)  returns 0x00 (0000ms, 0845ms total)
T2F34 002:335 JLINK_WriteReg(R2, 0x20000164)  returns 0x00 (0000ms, 0845ms total)
T2F34 002:335 JLINK_WriteReg(R3, 0x00000000)  returns 0x00 (0000ms, 0845ms total)
T2F34 002:335 JLINK_WriteReg(R4, 0x00000000)  returns 0x00 (0000ms, 0845ms total)
T2F34 002:335 JLINK_WriteReg(R5, 0x00000000)  returns 0x00 (0000ms, 0845ms total)
T2F34 002:335 JLINK_WriteReg(R6, 0x00000000)  returns 0x00 (0000ms, 0845ms total)
T2F34 002:335 JLINK_WriteReg(R7, 0x00000000)  returns 0x00 (0000ms, 0845ms total)
T2F34 002:335 JLINK_WriteReg(R8, 0x00000000)  returns 0x00 (0000ms, 0845ms total)
T2F34 002:335 JLINK_WriteReg(R9, 0x20000160)  returns 0x00 (0000ms, 0845ms total)
T2F34 002:335 JLINK_WriteReg(R10, 0x00000000)  returns 0x00 (0000ms, 0845ms total)
T2F34 002:335 JLINK_WriteReg(R11, 0x00000000)  returns 0x00 (0000ms, 0845ms total)
T2F34 002:335 JLINK_WriteReg(R12, 0x00000000)  returns 0x00 (0001ms, 0846ms total)
T2F34 002:336 JLINK_WriteReg(R13 (SP), 0x20001000)  returns 0x00 (0000ms, 0846ms total)
T2F34 002:336 JLINK_WriteReg(R14, 0x20000001)  returns 0x00 (0000ms, 0846ms total)
T2F34 002:336 JLINK_WriteReg(R15 (PC), 0x200000F4)  returns 0x00 (0000ms, 0846ms total)
T2F34 002:336 JLINK_WriteReg(XPSR, 0x01000000)  returns 0x00 (0000ms, 0846ms total)
T2F34 002:336 JLINK_WriteReg(MSP, 0x20001000)  returns 0x00 (0000ms, 0846ms total)
T2F34 002:336 JLINK_WriteReg(PSP, 0x20001000)  returns 0x00 (0000ms, 0846ms total)
T2F34 002:336 JLINK_WriteReg(CFBP, 0x00000000)  returns 0x00 (0000ms, 0846ms total)
T2F34 002:336 JLINK_SetBPEx(Addr = 0x20000000, Type = 0xFFFFFFF2)  returns 0x00000008 (0000ms, 0846ms total)
T2F34 002:336 JLINK_Go() (0001ms, 0847ms total)
T2F34 002:337 JLINK_IsHalted()  returns FALSE (0000ms, 0847ms total)
T2F34 002:405 JLINK_IsHalted() -- CPU_ReadMem(2 bytes @ 0x20000000)  returns TRUE (0004ms, 0851ms total)
T2F34 002:409 JLINK_ReadReg(R15 (PC))  returns 0x20000000 (0000ms, 0847ms total)
T2F34 002:409 JLINK_ClrBPEx(BPHandle = 0x00000008)  returns 0x00 (0000ms, 0847ms total)
T2F34 002:409 JLINK_ReadReg(R0)  returns 0x00000000 (0000ms, 0847ms total)
T2F34 002:411 JLINK_WriteMem(0x20000164, 0x0400 Bytes, ...) - Data: 93 40 9F 43 0B 68 93 40 1F 43 77 63 19 E0 02 20 ... -- CPU_WriteMem(1024 bytes @ 0x20000164)  returns 0x400 (0004ms, 0851ms total)
T2F34 002:415 JLINK_WriteReg(R0, 0x08001000)  returns 0x00 (0000ms, 0851ms total)
T2F34 002:415 JLINK_WriteReg(R1, 0x00000400)  returns 0x00 (0000ms, 0851ms total)
T2F34 002:415 JLINK_WriteReg(R2, 0x20000164)  returns 0x00 (0000ms, 0851ms total)
T2F34 002:415 JLINK_WriteReg(R3, 0x00000000)  returns 0x00 (0000ms, 0851ms total)
T2F34 002:415 JLINK_WriteReg(R4, 0x00000000)  returns 0x00 (0000ms, 0851ms total)
T2F34 002:415 JLINK_WriteReg(R5, 0x00000000)  returns 0x00 (0000ms, 0851ms total)
T2F34 002:415 JLINK_WriteReg(R6, 0x00000000)  returns 0x00 (0000ms, 0851ms total)
T2F34 002:415 JLINK_WriteReg(R7, 0x00000000)  returns 0x00 (0000ms, 0851ms total)
T2F34 002:415 JLINK_WriteReg(R8, 0x00000000)  returns 0x00 (0001ms, 0852ms total)
T2F34 002:416 JLINK_WriteReg(R9, 0x20000160)  returns 0x00 (0000ms, 0852ms total)
T2F34 002:416 JLINK_WriteReg(R10, 0x00000000)  returns 0x00 (0000ms, 0852ms total)
T2F34 002:416 JLINK_WriteReg(R11, 0x00000000)  returns 0x00 (0000ms, 0852ms total)
T2F34 002:416 JLINK_WriteReg(R12, 0x00000000)  returns 0x00 (0000ms, 0852ms total)
T2F34 002:416 JLINK_WriteReg(R13 (SP), 0x20001000)  returns 0x00 (0000ms, 0852ms total)
T2F34 002:416 JLINK_WriteReg(R14, 0x20000001)  returns 0x00 (0000ms, 0852ms total)
T2F34 002:416 JLINK_WriteReg(R15 (PC), 0x200000F4)  returns 0x00 (0000ms, 0852ms total)
T2F34 002:416 JLINK_WriteReg(XPSR, 0x01000000)  returns 0x00 (0000ms, 0852ms total)
T2F34 002:416 JLINK_WriteReg(MSP, 0x20001000)  returns 0x00 (0000ms, 0852ms total)
T2F34 002:416 JLINK_WriteReg(PSP, 0x20001000)  returns 0x00 (0000ms, 0852ms total)
T2F34 002:416 JLINK_WriteReg(CFBP, 0x00000000)  returns 0x00 (0001ms, 0853ms total)
T2F34 002:417 JLINK_SetBPEx(Addr = 0x20000000, Type = 0xFFFFFFF2)  returns 0x00000009 (0000ms, 0853ms total)
T2F34 002:417 JLINK_Go() (0001ms, 0854ms total)
T2F34 002:418 JLINK_IsHalted()  returns FALSE (0001ms, 0855ms total)
T2F34 002:439 JLINK_IsHalted()  returns FALSE (0001ms, 0855ms total)
T2F34 002:442 JLINK_IsHalted()  returns FALSE (0000ms, 0854ms total)
T2F34 002:444 JLINK_IsHalted()  returns FALSE (0000ms, 0854ms total)
T2F34 002:610 JLINK_IsHalted() -- CPU_ReadMem(2 bytes @ 0x20000000)  returns TRUE (0002ms, 0856ms total)
T2F34 002:612 JLINK_ReadReg(R15 (PC))  returns 0x20000000 (0000ms, 0854ms total)
T2F34 002:612 JLINK_ClrBPEx(BPHandle = 0x00000009)  returns 0x00 (0000ms, 0854ms total)
T2F34 002:612 JLINK_ReadReg(R0)  returns 0x00000000 (0000ms, 0854ms total)
T2F34 002:614 JLINK_WriteMem(0x20000164, 0x0400 Bytes, ...) - Data: DF F8 EC A0 DF F8 E8 B0 DF F8 E4 E0 01 68 78 3F ... -- CPU_WriteMem(1024 bytes @ 0x20000164)  returns 0x400 (0004ms, 0858ms total)
T2F34 002:618 JLINK_WriteReg(R0, 0x08001400)  returns 0x00 (0000ms, 0858ms total)
T2F34 002:618 JLINK_WriteReg(R1, 0x00000400)  returns 0x00 (0000ms, 0858ms total)
T2F34 002:618 JLINK_WriteReg(R2, 0x20000164)  returns 0x00 (0000ms, 0858ms total)
T2F34 002:618 JLINK_WriteReg(R3, 0x00000000)  returns 0x00 (0000ms, 0858ms total)
T2F34 002:618 JLINK_WriteReg(R4, 0x00000000)  returns 0x00 (0000ms, 0858ms total)
T2F34 002:618 JLINK_WriteReg(R5, 0x00000000)  returns 0x00 (0000ms, 0858ms total)
T2F34 002:618 JLINK_WriteReg(R6, 0x00000000)  returns 0x00 (0000ms, 0858ms total)
T2F34 002:618 JLINK_WriteReg(R7, 0x00000000)  returns 0x00 (0001ms, 0859ms total)
T2F34 002:619 JLINK_WriteReg(R8, 0x00000000)  returns 0x00 (0000ms, 0859ms total)
T2F34 002:619 JLINK_WriteReg(R9, 0x20000160)  returns 0x00 (0000ms, 0859ms total)
T2F34 002:619 JLINK_WriteReg(R10, 0x00000000)  returns 0x00 (0000ms, 0859ms total)
T2F34 002:619 JLINK_WriteReg(R11, 0x00000000)  returns 0x00 (0000ms, 0859ms total)
T2F34 002:619 JLINK_WriteReg(R12, 0x00000000)  returns 0x00 (0000ms, 0859ms total)
T2F34 002:619 JLINK_WriteReg(R13 (SP), 0x20001000)  returns 0x00 (0000ms, 0859ms total)
T2F34 002:619 JLINK_WriteReg(R14, 0x20000001)  returns 0x00 (0000ms, 0859ms total)
T2F34 002:619 JLINK_WriteReg(R15 (PC), 0x200000F4)  returns 0x00 (0000ms, 0859ms total)
T2F34 002:619 JLINK_WriteReg(XPSR, 0x01000000)  returns 0x00 (0000ms, 0859ms total)
T2F34 002:619 JLINK_WriteReg(MSP, 0x20001000)  returns 0x00 (0000ms, 0859ms total)
T2F34 002:619 JLINK_WriteReg(PSP, 0x20001000)  returns 0x00 (0000ms, 0859ms total)
T2F34 002:619 JLINK_WriteReg(CFBP, 0x00000000)  returns 0x00 (0000ms, 0859ms total)
T2F34 002:619 JLINK_SetBPEx(Addr = 0x20000000, Type = 0xFFFFFFF2)  returns 0x0000000A (0000ms, 0859ms total)
T2F34 002:619 JLINK_Go() (0002ms, 0861ms total)
T2F34 002:621 JLINK_IsHalted()  returns FALSE (0000ms, 0861ms total)
T2F34 002:642 JLINK_IsHalted()  returns FALSE (0000ms, 0861ms total)
T2F34 002:644 JLINK_IsHalted()  returns FALSE (0000ms, 0861ms total)
T2F34 002:646 JLINK_IsHalted()  returns FALSE (0000ms, 0861ms total)
T2F34 002:653 JLINK_IsHalted() -- CPU_ReadMem(2 bytes @ 0x20000000)  returns TRUE (0003ms, 0864ms total)
T2F34 002:656 JLINK_ReadReg(R15 (PC))  returns 0x20000000 (0000ms, 0861ms total)
T2F34 002:656 JLINK_ClrBPEx(BPHandle = 0x0000000A)  returns 0x00 (0000ms, 0861ms total)
T2F34 002:656 JLINK_ReadReg(R0)  returns 0x00000000 (0000ms, 0861ms total)
T2F34 002:656 JLINK_WriteMem(0x20000164, 0x0400 Bytes, ...) - Data: E0 6A 00 28 20 68 01 68 02 D0 41 F0 0E 01 06 E0 ... -- CPU_WriteMem(1024 bytes @ 0x20000164)  returns 0x400 (0005ms, 0866ms total)
T2F34 002:661 JLINK_WriteReg(R0, 0x08001800)  returns 0x00 (0000ms, 0866ms total)
T2F34 002:661 JLINK_WriteReg(R1, 0x00000400)  returns 0x00 (0000ms, 0866ms total)
T2F34 002:661 JLINK_WriteReg(R2, 0x20000164)  returns 0x00 (0000ms, 0866ms total)
T2F34 002:661 JLINK_WriteReg(R3, 0x00000000)  returns 0x00 (0000ms, 0866ms total)
T2F34 002:661 JLINK_WriteReg(R4, 0x00000000)  returns 0x00 (0000ms, 0866ms total)
T2F34 002:661 JLINK_WriteReg(R5, 0x00000000)  returns 0x00 (0000ms, 0866ms total)
T2F34 002:661 JLINK_WriteReg(R6, 0x00000000)  returns 0x00 (0000ms, 0866ms total)
T2F34 002:661 JLINK_WriteReg(R7, 0x00000000)  returns 0x00 (0000ms, 0866ms total)
T2F34 002:661 JLINK_WriteReg(R8, 0x00000000)  returns 0x00 (0000ms, 0866ms total)
T2F34 002:661 JLINK_WriteReg(R9, 0x20000160)  returns 0x00 (0000ms, 0866ms total)
T2F34 002:661 JLINK_WriteReg(R10, 0x00000000)  returns 0x00 (0000ms, 0866ms total)
T2F34 002:661 JLINK_WriteReg(R11, 0x00000000)  returns 0x00 (0000ms, 0866ms total)
T2F34 002:661 JLINK_WriteReg(R12, 0x00000000)  returns 0x00 (0000ms, 0866ms total)
T2F34 002:661 JLINK_WriteReg(R13 (SP), 0x20001000)  returns 0x00 (0000ms, 0866ms total)
T2F34 002:661 JLINK_WriteReg(R14, 0x20000001)  returns 0x00 (0000ms, 0866ms total)
T2F34 002:661 JLINK_WriteReg(R15 (PC), 0x200000F4)  returns 0x00 (0000ms, 0866ms total)
T2F34 002:661 JLINK_WriteReg(XPSR, 0x01000000)  returns 0x00 (0000ms, 0866ms total)
T2F34 002:661 JLINK_WriteReg(MSP, 0x20001000)  returns 0x00 (0000ms, 0866ms total)
T2F34 002:661 JLINK_WriteReg(PSP, 0x20001000)  returns 0x00 (0000ms, 0866ms total)
T2F34 002:661 JLINK_WriteReg(CFBP, 0x00000000)  returns 0x00 (0000ms, 0866ms total)
T2F34 002:661 JLINK_SetBPEx(Addr = 0x20000000, Type = 0xFFFFFFF2)  returns 0x0000000B (0000ms, 0866ms total)
T2F34 002:661 JLINK_Go() (0002ms, 0868ms total)
T2F34 002:663 JLINK_IsHalted()  returns FALSE (0000ms, 0868ms total)
T2F34 002:734 JLINK_IsHalted() -- CPU_ReadMem(2 bytes @ 0x20000000)  returns TRUE (0002ms, 0870ms total)
T2F34 002:736 JLINK_ReadReg(R15 (PC))  returns 0x20000000 (0000ms, 0868ms total)
T2F34 002:736 JLINK_ClrBPEx(BPHandle = 0x0000000B)  returns 0x00 (0000ms, 0868ms total)
T2F34 002:736 JLINK_ReadReg(R0)  returns 0x00000000 (0000ms, 0868ms total)
T2F34 002:739 JLINK_WriteMem(0x20000164, 0x0400 Bytes, ...) - Data: 05 46 94 F8 3D 00 20 28 7E D1 19 23 01 22 78 49 ... -- CPU_WriteMem(1024 bytes @ 0x20000164)  returns 0x400 (0004ms, 0872ms total)
T2F34 002:743 JLINK_WriteReg(R0, 0x08001C00)  returns 0x00 (0000ms, 0872ms total)
T2F34 002:743 JLINK_WriteReg(R1, 0x00000400)  returns 0x00 (0000ms, 0872ms total)
T2F34 002:743 JLINK_WriteReg(R2, 0x20000164)  returns 0x00 (0000ms, 0872ms total)
T2F34 002:743 JLINK_WriteReg(R3, 0x00000000)  returns 0x00 (0000ms, 0872ms total)
T2F34 002:743 JLINK_WriteReg(R4, 0x00000000)  returns 0x00 (0000ms, 0872ms total)
T2F34 002:743 JLINK_WriteReg(R5, 0x00000000)  returns 0x00 (0000ms, 0872ms total)
T2F34 002:743 JLINK_WriteReg(R6, 0x00000000)  returns 0x00 (0000ms, 0872ms total)
T2F34 002:743 JLINK_WriteReg(R7, 0x00000000)  returns 0x00 (0000ms, 0872ms total)
T2F34 002:743 JLINK_WriteReg(R8, 0x00000000)  returns 0x00 (0000ms, 0872ms total)
T2F34 002:743 JLINK_WriteReg(R9, 0x20000160)  returns 0x00 (0000ms, 0872ms total)
T2F34 002:743 JLINK_WriteReg(R10, 0x00000000)  returns 0x00 (0000ms, 0872ms total)
T2F34 002:743 JLINK_WriteReg(R11, 0x00000000)  returns 0x00 (0000ms, 0872ms total)
T2F34 002:743 JLINK_WriteReg(R12, 0x00000000)  returns 0x00 (0000ms, 0872ms total)
T2F34 002:743 JLINK_WriteReg(R13 (SP), 0x20001000)  returns 0x00 (0000ms, 0872ms total)
T2F34 002:743 JLINK_WriteReg(R14, 0x20000001)  returns 0x00 (0000ms, 0872ms total)
T2F34 002:743 JLINK_WriteReg(R15 (PC), 0x200000F4)  returns 0x00 (0000ms, 0872ms total)
T2F34 002:743 JLINK_WriteReg(XPSR, 0x01000000)  returns 0x00 (0000ms, 0872ms total)
T2F34 002:743 JLINK_WriteReg(MSP, 0x20001000)  returns 0x00 (0000ms, 0872ms total)
T2F34 002:743 JLINK_WriteReg(PSP, 0x20001000)  returns 0x00 (0000ms, 0872ms total)
T2F34 002:743 JLINK_WriteReg(CFBP, 0x00000000)  returns 0x00 (0001ms, 0873ms total)
T2F34 002:744 JLINK_SetBPEx(Addr = 0x20000000, Type = 0xFFFFFFF2)  returns 0x0000000C (0000ms, 0873ms total)
T2F34 002:744 JLINK_Go() (0002ms, 0875ms total)
T2F34 002:746 JLINK_IsHalted()  returns FALSE (0001ms, 0876ms total)
T2F34 002:754 JLINK_IsHalted()  returns FALSE (0001ms, 0876ms total)
T2F34 002:757 JLINK_IsHalted()  returns FALSE (0000ms, 0875ms total)
T2F34 002:759 JLINK_IsHalted()  returns FALSE (0000ms, 0875ms total)
T2F34 002:765 JLINK_IsHalted()  returns FALSE (0000ms, 0875ms total)
T2F34 002:767 JLINK_IsHalted()  returns FALSE (0000ms, 0875ms total)
T2F34 002:769 JLINK_IsHalted()  returns FALSE (0000ms, 0875ms total)
T2F34 002:772 JLINK_IsHalted()  returns FALSE (0000ms, 0875ms total)
T2F34 002:834 JLINK_IsHalted() -- CPU_ReadMem(2 bytes @ 0x20000000)  returns TRUE (0003ms, 0878ms total)
T2F34 002:837 JLINK_ReadReg(R15 (PC))  returns 0x20000000 (0000ms, 0875ms total)
T2F34 002:837 JLINK_ClrBPEx(BPHandle = 0x0000000C)  returns 0x00 (0000ms, 0875ms total)
T2F34 002:837 JLINK_ReadReg(R0)  returns 0x00000000 (0000ms, 0875ms total)
T2F34 002:838 JLINK_WriteMem(0x20000164, 0x0400 Bytes, ...) - Data: F1 F1 0D 48 0B 4A 49 1E 02 60 41 60 40 F2 E7 32 ... -- CPU_WriteMem(1024 bytes @ 0x20000164)  returns 0x400 (0004ms, 0879ms total)
T2F34 002:842 JLINK_WriteReg(R0, 0x08002000)  returns 0x00 (0000ms, 0879ms total)
T2F34 002:842 JLINK_WriteReg(R1, 0x00000400)  returns 0x00 (0000ms, 0879ms total)
T2F34 002:842 JLINK_WriteReg(R2, 0x20000164)  returns 0x00 (0000ms, 0879ms total)
T2F34 002:843 JLINK_WriteReg(R3, 0x00000000)  returns 0x00 (0000ms, 0879ms total)
T2F34 002:843 JLINK_WriteReg(R4, 0x00000000)  returns 0x00 (0000ms, 0879ms total)
T2F34 002:843 JLINK_WriteReg(R5, 0x00000000)  returns 0x00 (0000ms, 0879ms total)
T2F34 002:843 JLINK_WriteReg(R6, 0x00000000)  returns 0x00 (0000ms, 0879ms total)
T2F34 002:843 JLINK_WriteReg(R7, 0x00000000)  returns 0x00 (0000ms, 0879ms total)
T2F34 002:843 JLINK_WriteReg(R8, 0x00000000)  returns 0x00 (0000ms, 0879ms total)
T2F34 002:843 JLINK_WriteReg(R9, 0x20000160)  returns 0x00 (0000ms, 0879ms total)
T2F34 002:843 JLINK_WriteReg(R10, 0x00000000)  returns 0x00 (0000ms, 0879ms total)
T2F34 002:843 JLINK_WriteReg(R11, 0x00000000)  returns 0x00 (0000ms, 0879ms total)
T2F34 002:843 JLINK_WriteReg(R12, 0x00000000)  returns 0x00 (0000ms, 0879ms total)
T2F34 002:843 JLINK_WriteReg(R13 (SP), 0x20001000)  returns 0x00 (0000ms, 0879ms total)
T2F34 002:843 JLINK_WriteReg(R14, 0x20000001)  returns 0x00 (0000ms, 0879ms total)
T2F34 002:843 JLINK_WriteReg(R15 (PC), 0x200000F4)  returns 0x00 (0000ms, 0879ms total)
T2F34 002:843 JLINK_WriteReg(XPSR, 0x01000000)  returns 0x00 (0000ms, 0879ms total)
T2F34 002:843 JLINK_WriteReg(MSP, 0x20001000)  returns 0x00 (0000ms, 0879ms total)
T2F34 002:843 JLINK_WriteReg(PSP, 0x20001000)  returns 0x00 (0000ms, 0879ms total)
T2F34 002:843 JLINK_WriteReg(CFBP, 0x00000000)  returns 0x00 (0000ms, 0879ms total)
T2F34 002:843 JLINK_SetBPEx(Addr = 0x20000000, Type = 0xFFFFFFF2)  returns 0x0000000D (0000ms, 0879ms total)
T2F34 002:843 JLINK_Go() (0002ms, 0881ms total)
T2F34 002:845 JLINK_IsHalted()  returns FALSE (0001ms, 0882ms total)
T2F34 002:857 JLINK_IsHalted()  returns FALSE (0000ms, 0881ms total)
T2F34 002:860 JLINK_IsHalted()  returns FALSE (0000ms, 0881ms total)
T2F34 002:862 JLINK_IsHalted()  returns FALSE (0000ms, 0881ms total)
T2F34 002:864 JLINK_IsHalted()  returns FALSE (0000ms, 0881ms total)
T2F34 002:873 JLINK_IsHalted()  returns FALSE (0000ms, 0881ms total)
T2F34 002:875 JLINK_IsHalted()  returns FALSE (0000ms, 0881ms total)
T2F34 002:877 JLINK_IsHalted() -- CPU_ReadMem(2 bytes @ 0x20000000)  returns TRUE (0003ms, 0884ms total)
T2F34 002:880 JLINK_ReadReg(R15 (PC))  returns 0x20000000 (0000ms, 0881ms total)
T2F34 002:880 JLINK_ClrBPEx(BPHandle = 0x0000000D)  returns 0x00 (0000ms, 0881ms total)
T2F34 002:880 JLINK_ReadReg(R0)  returns 0x00000000 (0000ms, 0881ms total)
T2F34 002:881 JLINK_WriteMem(0x20000164, 0x0400 Bytes, ...) - Data: 2C 00 00 20 00 10 02 40 64 6E 00 08 04 48 05 49 ... -- CPU_WriteMem(1024 bytes @ 0x20000164)  returns 0x400 (0004ms, 0885ms total)
T2F34 002:885 JLINK_WriteReg(R0, 0x08002400)  returns 0x00 (0000ms, 0885ms total)
T2F34 002:885 JLINK_WriteReg(R1, 0x00000400)  returns 0x00 (0000ms, 0885ms total)
T2F34 002:885 JLINK_WriteReg(R2, 0x20000164)  returns 0x00 (0000ms, 0885ms total)
T2F34 002:885 JLINK_WriteReg(R3, 0x00000000)  returns 0x00 (0000ms, 0885ms total)
T2F34 002:885 JLINK_WriteReg(R4, 0x00000000)  returns 0x00 (0000ms, 0885ms total)
T2F34 002:885 JLINK_WriteReg(R5, 0x00000000)  returns 0x00 (0000ms, 0885ms total)
T2F34 002:885 JLINK_WriteReg(R6, 0x00000000)  returns 0x00 (0000ms, 0885ms total)
T2F34 002:885 JLINK_WriteReg(R7, 0x00000000)  returns 0x00 (0000ms, 0885ms total)
T2F34 002:885 JLINK_WriteReg(R8, 0x00000000)  returns 0x00 (0000ms, 0885ms total)
T2F34 002:885 JLINK_WriteReg(R9, 0x20000160)  returns 0x00 (0000ms, 0885ms total)
T2F34 002:886 JLINK_WriteReg(R10, 0x00000000)  returns 0x00 (0000ms, 0886ms total)
T2F34 002:886 JLINK_WriteReg(R11, 0x00000000)  returns 0x00 (0000ms, 0886ms total)
T2F34 002:886 JLINK_WriteReg(R12, 0x00000000)  returns 0x00 (0000ms, 0886ms total)
T2F34 002:886 JLINK_WriteReg(R13 (SP), 0x20001000)  returns 0x00 (0000ms, 0886ms total)
T2F34 002:886 JLINK_WriteReg(R14, 0x20000001)  returns 0x00 (0000ms, 0886ms total)
T2F34 002:886 JLINK_WriteReg(R15 (PC), 0x200000F4)  returns 0x00 (0000ms, 0886ms total)
T2F34 002:886 JLINK_WriteReg(XPSR, 0x01000000)  returns 0x00 (0000ms, 0886ms total)
T2F34 002:886 JLINK_WriteReg(MSP, 0x20001000)  returns 0x00 (0000ms, 0886ms total)
T2F34 002:886 JLINK_WriteReg(PSP, 0x20001000)  returns 0x00 (0000ms, 0886ms total)
T2F34 002:886 JLINK_WriteReg(CFBP, 0x00000000)  returns 0x00 (0000ms, 0886ms total)
T2F34 002:886 JLINK_SetBPEx(Addr = 0x20000000, Type = 0xFFFFFFF2)  returns 0x0000000E (0000ms, 0886ms total)
T2F34 002:886 JLINK_Go() (0002ms, 0888ms total)
T2F34 002:888 JLINK_IsHalted()  returns FALSE (0000ms, 0888ms total)
T2F34 002:952 JLINK_IsHalted() -- CPU_ReadMem(2 bytes @ 0x20000000)  returns TRUE (0002ms, 0890ms total)
T2F34 002:954 JLINK_ReadReg(R15 (PC))  returns 0x20000000 (0000ms, 0888ms total)
T2F34 002:955 JLINK_ClrBPEx(BPHandle = 0x0000000E)  returns 0x00 (0000ms, 0888ms total)
T2F34 002:955 JLINK_ReadReg(R0)  returns 0x00000000 (0000ms, 0888ms total)
T2F34 002:956 JLINK_WriteMem(0x20000164, 0x0400 Bytes, ...) - Data: 01 2A 20 D0 01 22 80 F8 3C 20 02 23 80 F8 3D 30 ... -- CPU_WriteMem(1024 bytes @ 0x20000164)  returns 0x400 (0005ms, 0893ms total)
T2F34 002:961 JLINK_WriteReg(R0, 0x08002800)  returns 0x00 (0000ms, 0893ms total)
T2F34 002:961 JLINK_WriteReg(R1, 0x00000400)  returns 0x00 (0000ms, 0893ms total)
T2F34 002:961 JLINK_WriteReg(R2, 0x20000164)  returns 0x00 (0000ms, 0893ms total)
T2F34 002:961 JLINK_WriteReg(R3, 0x00000000)  returns 0x00 (0000ms, 0893ms total)
T2F34 002:961 JLINK_WriteReg(R4, 0x00000000)  returns 0x00 (0000ms, 0893ms total)
T2F34 002:961 JLINK_WriteReg(R5, 0x00000000)  returns 0x00 (0000ms, 0893ms total)
T2F34 002:961 JLINK_WriteReg(R6, 0x00000000)  returns 0x00 (0000ms, 0893ms total)
T2F34 002:961 JLINK_WriteReg(R7, 0x00000000)  returns 0x00 (0000ms, 0893ms total)
T2F34 002:961 JLINK_WriteReg(R8, 0x00000000)  returns 0x00 (0000ms, 0893ms total)
T2F34 002:961 JLINK_WriteReg(R9, 0x20000160)  returns 0x00 (0000ms, 0893ms total)
T2F34 002:961 JLINK_WriteReg(R10, 0x00000000)  returns 0x00 (0000ms, 0893ms total)
T2F34 002:961 JLINK_WriteReg(R11, 0x00000000)  returns 0x00 (0000ms, 0893ms total)
T2F34 002:961 JLINK_WriteReg(R12, 0x00000000)  returns 0x00 (0000ms, 0893ms total)
T2F34 002:961 JLINK_WriteReg(R13 (SP), 0x20001000)  returns 0x00 (0000ms, 0893ms total)
T2F34 002:961 JLINK_WriteReg(R14, 0x20000001)  returns 0x00 (0000ms, 0893ms total)
T2F34 002:961 JLINK_WriteReg(R15 (PC), 0x200000F4)  returns 0x00 (0000ms, 0893ms total)
T2F34 002:961 JLINK_WriteReg(XPSR, 0x01000000)  returns 0x00 (0000ms, 0893ms total)
T2F34 002:961 JLINK_WriteReg(MSP, 0x20001000)  returns 0x00 (0000ms, 0893ms total)
T2F34 002:961 JLINK_WriteReg(PSP, 0x20001000)  returns 0x00 (0000ms, 0893ms total)
T2F34 002:961 JLINK_WriteReg(CFBP, 0x00000000)  returns 0x00 (0000ms, 0893ms total)
T2F34 002:961 JLINK_SetBPEx(Addr = 0x20000000, Type = 0xFFFFFFF2)  returns 0x0000000F (0000ms, 0893ms total)
T2F34 002:961 JLINK_Go() (0001ms, 0894ms total)
T2F34 002:962 JLINK_IsHalted()  returns FALSE (0001ms, 0895ms total)
T2F34 002:972 JLINK_IsHalted()  returns FALSE (0000ms, 0894ms total)
T2F34 002:974 JLINK_IsHalted()  returns FALSE (0001ms, 0895ms total)
T2F34 002:976 JLINK_IsHalted()  returns FALSE (0001ms, 0895ms total)
T2F34 002:984 JLINK_IsHalted()  returns FALSE (0001ms, 0895ms total)
T2F34 002:987 JLINK_IsHalted()  returns FALSE (0000ms, 0894ms total)
T2F34 002:989 JLINK_IsHalted()  returns FALSE (0000ms, 0894ms total)
T2F34 003:047 JLINK_IsHalted() -- CPU_ReadMem(2 bytes @ 0x20000000)  returns TRUE (0003ms, 0897ms total)
T2F34 003:050 JLINK_ReadReg(R15 (PC))  returns 0x20000000 (0000ms, 0894ms total)
T2F34 003:050 JLINK_ClrBPEx(BPHandle = 0x0000000F)  returns 0x00 (0000ms, 0894ms total)
T2F34 003:050 JLINK_ReadReg(R0)  returns 0x00000000 (0000ms, 0894ms total)
T2F34 003:051 JLINK_WriteMem(0x20000164, 0x0400 Bytes, ...) - Data: 00 F0 02 00 00 90 08 BD 00 2C 01 40 00 10 02 40 ... -- CPU_WriteMem(1024 bytes @ 0x20000164)  returns 0x400 (0004ms, 0898ms total)
T2F34 003:055 JLINK_WriteReg(R0, 0x08002C00)  returns 0x00 (0001ms, 0899ms total)
T2F34 003:056 JLINK_WriteReg(R1, 0x00000400)  returns 0x00 (0000ms, 0899ms total)
T2F34 003:056 JLINK_WriteReg(R2, 0x20000164)  returns 0x00 (0000ms, 0899ms total)
T2F34 003:056 JLINK_WriteReg(R3, 0x00000000)  returns 0x00 (0000ms, 0899ms total)
T2F34 003:056 JLINK_WriteReg(R4, 0x00000000)  returns 0x00 (0000ms, 0899ms total)
T2F34 003:056 JLINK_WriteReg(R5, 0x00000000)  returns 0x00 (0000ms, 0899ms total)
T2F34 003:056 JLINK_WriteReg(R6, 0x00000000)  returns 0x00 (0000ms, 0899ms total)
T2F34 003:056 JLINK_WriteReg(R7, 0x00000000)  returns 0x00 (0000ms, 0899ms total)
T2F34 003:056 JLINK_WriteReg(R8, 0x00000000)  returns 0x00 (0000ms, 0899ms total)
T2F34 003:056 JLINK_WriteReg(R9, 0x20000160)  returns 0x00 (0000ms, 0899ms total)
T2F34 003:056 JLINK_WriteReg(R10, 0x00000000)  returns 0x00 (0000ms, 0899ms total)
T2F34 003:056 JLINK_WriteReg(R11, 0x00000000)  returns 0x00 (0000ms, 0899ms total)
T2F34 003:056 JLINK_WriteReg(R12, 0x00000000)  returns 0x00 (0000ms, 0899ms total)
T2F34 003:056 JLINK_WriteReg(R13 (SP), 0x20001000)  returns 0x00 (0000ms, 0899ms total)
T2F34 003:056 JLINK_WriteReg(R14, 0x20000001)  returns 0x00 (0000ms, 0899ms total)
T2F34 003:056 JLINK_WriteReg(R15 (PC), 0x200000F4)  returns 0x00 (0000ms, 0899ms total)
T2F34 003:056 JLINK_WriteReg(XPSR, 0x01000000)  returns 0x00 (0000ms, 0899ms total)
T2F34 003:056 JLINK_WriteReg(MSP, 0x20001000)  returns 0x00 (0000ms, 0899ms total)
T2F34 003:056 JLINK_WriteReg(PSP, 0x20001000)  returns 0x00 (0000ms, 0899ms total)
T2F34 003:056 JLINK_WriteReg(CFBP, 0x00000000)  returns 0x00 (0000ms, 0899ms total)
T2F34 003:057 JLINK_SetBPEx(Addr = 0x20000000, Type = 0xFFFFFFF2)  returns 0x00000010 (0000ms, 0899ms total)
T2F34 003:057 JLINK_Go() (0002ms, 0901ms total)
T2F34 003:059 JLINK_IsHalted()  returns FALSE (0001ms, 0902ms total)
T2F34 003:066 JLINK_IsHalted()  returns FALSE (0000ms, 0901ms total)
T2F34 003:068 JLINK_IsHalted()  returns FALSE (0000ms, 0901ms total)
T2F34 003:070 JLINK_IsHalted()  returns FALSE (0000ms, 0901ms total)
T2F34 003:078 JLINK_IsHalted()  returns FALSE (0000ms, 0901ms total)
T2F34 003:080 JLINK_IsHalted()  returns FALSE (0000ms, 0901ms total)
T2F34 003:082 JLINK_IsHalted()  returns FALSE (0000ms, 0901ms total)
T2F34 003:084 JLINK_IsHalted()  returns FALSE (0001ms, 0902ms total)
T2F34 003:087 JLINK_IsHalted()  returns FALSE (0000ms, 0901ms total)
